TF8B4 10685:866 SEGGER J-Link V6.30h Log File (0001ms, 22915ms total)
TF8B4 10685:866 DLL Compiled: Mar 16 2018 18:02:51 (0001ms, 22915ms total)
TF8B4 10685:866 Logging started @ 2019-12-28 00:47 (0001ms, 22915ms total)
TF8B4 10685:867 JLINK_SetWarnOutHandler(...) (0000ms, 22915ms total)
TF8B4 10685:867 JLINK_OpenEx(...)
Firmware: J-Link V9 compiled Mar  2 2018 17:07:57
Hardware: V9.40
S/N: 59400616
Feature(s): RDI, FlashBP, FlashDL, JFlash, GDB
TELNET listener socket opened on port 19021WEBSRV 
Starting webserver (0095ms, 23010ms total)
TF8B4 10685:867 WEBSRV Webserver running on local port 19080 (0095ms, 23010ms total)
TF8B4 10685:867   returns O.K. (0095ms, 23010ms total)
TF8B4 10685:962 JLINK_GetEmuCaps()  returns 0xB9FF7BBF (0000ms, 23010ms total)
TF8B4 10685:963 JLINK_TIF_GetAvailable(...) (0001ms, 23011ms total)
TF8B4 10685:964 JLINK_SetErrorOutHandler(...) (0000ms, 23011ms total)
TF8B4 10685:964 JLINK_ExecCommand("ProjectFile = "E:\git\keil_stm32f407\ucosiii_Template\USER\JLinkSettings.ini"", ...).   returns 0x00 (0002ms, 23013ms total)
TF8B4 10685:966 JLINK_ExecCommand("Device = STM32F407VETx", ...). Device "STM32F407VE" selected.  returns 0x00 (0001ms, 23014ms total)
TF8B4 10685:967 JLINK_ExecCommand("DisableConnectionTimeout", ...).   returns 0x01 (0000ms, 23014ms total)
TF8B4 10685:967 JLINK_GetHardwareVersion()  returns 0x16F30 (0000ms, 23014ms total)
TF8B4 10685:967 JLINK_GetDLLVersion()  returns 63008 (0000ms, 23014ms total)
TF8B4 10685:967 JLINK_GetFirmwareString(...) (0000ms, 23014ms total)
TF8B4 10685:967 JLINK_GetDLLVersion()  returns 63008 (0000ms, 23014ms total)
TF8B4 10685:967 JLINK_GetCompileDateTime() (0000ms, 23014ms total)
TF8B4 10685:967 JLINK_GetFirmwareString(...) (0001ms, 23015ms total)
TF8B4 10685:968 JLINK_GetHardwareVersion()  returns 0x16F30 (0000ms, 23015ms total)
TF8B4 10685:968 JLINK_TIF_Select(JLINKARM_TIF_JTAG)  returns 0x00 (0006ms, 23021ms total)
TF8B4 10685:974 JLINK_SetSpeed(1000) (0001ms, 23022ms total)
TF8B4 10685:975 JLINK_GetIdData(...) >0x2F8 JTAG>TotalIRLen = 9, IRPrint = 0x0011 >0x30 JTAG> >0x50 JTAG>JTAG chain detection found 2 devices: #0 Id: 0x4BA00477, IRLen: 04, CoreSight JTAG-DP #1 Id: 0x06413041, IRLen: 05, STM32 Boundary Scan >0x40 JTAG> >0x40 JTAG> >0x40 JTAG> >0x30 JTAG> >0x40 JTAG> >0x40 JTAG> >0x40 JTAG> >0x40 JTAG> >0x40 JTAG> >0x40 JTAG> >0x40 JTAG> >0x40 JTAG> >0x40 JTAG> >0x40 JTAG> >0x40 JTAG> >0x40 JTAG> >0x40 JTAG> >0x40 JTAG> >0x40 JTAG> >0x40 JTAG> >0x40 JTAG> >0x40 JTAG>
 >0x40 JTAG> >0x40 JTAG> >0x2F8 JTAG>TotalIRLen = 9, IRPrint = 0x0011 >0x30 JTAG> >0x50 JTAG>JTAG chain detection found 2 devices: #0 Id: 0x4BA00477, IRLen: 04, CoreSight JTAG-DP #1 Id: 0x06413041, IRLen: 05, STM32 Boundary ScanScanning AP map to find all available APs >0x80 JTAG> >0x50 JTAG> >0x40 JTAG> >0x40 JTAG> >0x50 JTAG> >0x40 JTAG>AP[1]: Stopped AP scan as end of AP map has been reachedAP[0]: AHB-AP (IDR: 0x24770011)Iterating through AP map to find AHB-AP to use >0x80 JTAG> >0x50 JTAG>
 >0x50 JTAG> >0x80 JTAG> >0x40 JTAG> >0x30 JTAG> >0x40 JTAG> >0x40 JTAG>AP[0]: Core foundAP[0]: AHB-AP ROM base: 0xE00FF000 >0x40 JTAG> >0x40 JTAG> >0x30 JTAG> >0x40 JTAG> >0x40 JTAG>CPUID register: 0x410FC241. Implementer code: 0x41 (ARM)Found Cortex-M4 r0p1, Little endian. -- CPU_ReadMem(4 bytes @ 0xE000EDF0) -- CPU_WriteMem(4 bytes @ 0xE000EDF0) -- CPU_ReadMem(4 bytes @ 0xE0002000)FPUnit: 6 code (BP) slots and 2 literal slots -- CPU_ReadMem(4 bytes @ 0xE000EDFC) -- CPU_WriteMem(4 bytes @ 0xE000EDFC)
 -- CPU_ReadMem(4 bytes @ 0xE0001000) -- CPU_WriteMem(4 bytes @ 0xE0001000) -- CPU_ReadMem(4 bytes @ 0xE000ED88) -- CPU_WriteMem(4 bytes @ 0xE000ED88) -- CPU_ReadMem(4 bytes @ 0xE000ED88) -- CPU_WriteMem(4 bytes @ 0xE000ED88)CoreSight components:ROMTbl[0] @ E00FF000 -- CPU_ReadMem(16 bytes @ 0xE00FF000) -- CPU_ReadMem(16 bytes @ 0xE000EFF0) -- CPU_ReadMem(16 bytes @ 0xE000EFE0)ROMTbl[0][0]: E000E000, CID: B105E00D, PID: 000BB00C SCS-M7 -- CPU_ReadMem(16 bytes @ 0xE0001FF0)
 -- CPU_ReadMem(16 bytes @ 0xE0001FE0)ROMTbl[0][1]: E0001000, CID: B105E00D, PID: 003BB002 DWT -- CPU_ReadMem(16 bytes @ 0xE0002FF0) -- CPU_ReadMem(16 bytes @ 0xE0002FE0)ROMTbl[0][2]: E0002000, CID: B105E00D, PID: 002BB003 FPB -- CPU_ReadMem(16 bytes @ 0xE0000FF0) -- CPU_ReadMem(16 bytes @ 0xE0000FE0)ROMTbl[0][3]: E0000000, CID: B105E00D, PID: 003BB001 ITM -- CPU_ReadMem(16 bytes @ 0xE00FF010) -- CPU_ReadMem(16 bytes @ 0xE0040FF0) -- CPU_ReadMem(16 bytes @ 0xE0040FE0)
ROMTbl[0][4]: E0040000, CID: B105900D, PID: 000BB9A1 TPIU -- CPU_ReadMem(16 bytes @ 0xE0041FF0) -- CPU_ReadMem(16 bytes @ 0xE0041FE0)ROMTbl[0][5]: E0041000, CID: B105900D, PID: 000BB925 ETM ScanLen=9 NumDevices=2 aId[0]=0x4BA00477 aIrRead[0]=0 aScanLen[0]=0 aScanRead[0]=0 (0084ms, 23106ms total)
TF8B4 10686:059 JLINK_JTAG_GetDeviceID(DeviceIndex = 0)  returns 0x4BA00477 (0000ms, 23106ms total)
TF8B4 10686:059 JLINK_JTAG_GetDeviceInfo(DeviceIndex = 0)  returns 0x00 (0000ms, 23106ms total)
TF8B4 10686:059 JLINK_JTAG_GetDeviceID(DeviceIndex = 1)  returns 0x6413041 (0000ms, 23106ms total)
TF8B4 10686:059 JLINK_JTAG_GetDeviceInfo(DeviceIndex = 1)  returns 0x00 (0000ms, 23106ms total)
TF8B4 10686:059 JLINK_GetDLLVersion()  returns 63008 (0000ms, 23106ms total)
TF8B4 10686:059 JLINK_CORE_GetFound()  returns 0xE0000FF (0000ms, 23106ms total)
TF8B4 10686:059 JLINK_GetDebugInfo(0x100 = JLINKARM_ROM_TABLE_ADDR_INDEX) -- Value=0xE00FF000  returns 0x00 (0000ms, 23106ms total)
TF8B4 10686:059 JLINK_GetDebugInfo(0x100 = JLINKARM_ROM_TABLE_ADDR_INDEX) -- Value=0xE00FF000  returns 0x00 (0000ms, 23106ms total)
TF8B4 10686:059 JLINK_GetDebugInfo(0x101 = JLINKARM_DEBUG_INFO_ETM_ADDR_INDEX) -- Value=0xE0041000  returns 0x00 (0000ms, 23106ms total)
TF8B4 10686:059 JLINK_ReadMemEx(0xE0041FD0, 0x0020 Bytes, ..., Flags = 0x02000004) -- CPU_ReadMem(32 bytes @ 0xE0041FD0) - Data: 04 00 00 00 00 00 00 00 00 00 00 00 00 00 00 00 ...  returns 0x20 (0002ms, 23108ms total)
TF8B4 10686:061 JLINK_GetDebugInfo(0x102 = JLINKARM_DEBUG_INFO_MTB_ADDR_INDEX) -- Value=0x00000000  returns 0x00 (0000ms, 23108ms total)
TF8B4 10686:061 JLINK_GetDebugInfo(0x103 = JLINKARM_DEBUG_INFO_TPIU_ADDR_INDEX) -- Value=0xE0040000  returns 0x00 (0000ms, 23108ms total)
TF8B4 10686:061 JLINK_GetDebugInfo(0x104 = JLINKARM_DEBUG_INFO_ITM_ADDR_INDEX) -- Value=0xE0000000  returns 0x00 (0000ms, 23108ms total)
TF8B4 10686:061 JLINK_GetDebugInfo(0x105 = JLINKARM_DEBUG_INFO_DWT_ADDR_INDEX) -- Value=0xE0001000  returns 0x00 (0000ms, 23108ms total)
TF8B4 10686:061 JLINK_GetDebugInfo(0x106 = JLINKARM_DEBUG_INFO_FPB_ADDR_INDEX) -- Value=0xE0002000  returns 0x00 (0000ms, 23108ms total)
TF8B4 10686:061 JLINK_GetDebugInfo(0x107 = JLINKARM_DEBUG_INFO_NVIC_ADDR_INDEX) -- Value=0xE000E000  returns 0x00 (0000ms, 23108ms total)
TF8B4 10686:061 JLINK_GetDebugInfo(0x10C = JLINKARM_DEBUG_INFO_DBG_ADDR_INDEX) -- Value=0xE000EDF0  returns 0x00 (0000ms, 23108ms total)
TF8B4 10686:061 JLINK_GetDebugInfo(0x01 = Unknown) -- Value=0x00000001  returns 0x00 (0000ms, 23108ms total)
TF8B4 10686:061 JLINK_ReadMemU32(0xE000ED00, 0x0001 Items, ...) -- CPU_ReadMem(4 bytes @ 0xE000ED00) - Data: 41 C2 0F 41  returns 0x01 (0002ms, 23110ms total)
TF8B4 10686:063 JLINK_GetDebugInfo(0x10F = JLINKARM_DEBUG_INFO_HAS_CORTEX_M_SECURITY_EXT_INDEX) -- Value=0x00000000  returns 0x00 (0000ms, 23110ms total)
TF8B4 10686:063 JLINK_SetResetType(JLINKARM_CM3_RESET_TYPE_NORMAL)  returns JLINKARM_CM3_RESET_TYPE_NORMAL (0000ms, 23110ms total)
TF8B4 10686:063 JLINK_Reset() -- CPU is running -- CPU_WriteMem(4 bytes @ 0xE000EDF0) -- CPU is running -- CPU_WriteMem(4 bytes @ 0xE000EDFC)Reset: Halt core after reset via DEMCR.VC_CORERESET.Reset: Reset device via AIRCR.SYSRESETREQ. -- CPU is running -- CPU_WriteMem(4 bytes @ 0xE000ED0C) -- CPU_ReadMem(4 bytes @ 0xE000EDF0) -- CPU_ReadMem(4 bytes @ 0xE000EDF0) -- CPU is running -- CPU_WriteMem(4 bytes @ 0xE000EDF0) -- CPU is running -- CPU_WriteMem(4 bytes @ 0xE000EDFC)
 -- CPU_ReadMem(4 bytes @ 0xE000EDF0) -- CPU_WriteMem(4 bytes @ 0xE000EDFC) -- CPU_WriteMem(4 bytes @ 0xE0001028) -- CPU_WriteMem(4 bytes @ 0xE0001038) -- CPU_WriteMem(4 bytes @ 0xE0001048) -- CPU_WriteMem(4 bytes @ 0xE0001058) -- CPU_WriteMem(4 bytes @ 0xE0002000) -- CPU_ReadMem(4 bytes @ 0xE000EDFC) -- CPU_ReadMem(4 bytes @ 0xE0001000) (0078ms, 23188ms total)
TF8B4 10686:141 JLINK_ReadReg(R15 (PC))  returns 0x08000240 (0001ms, 23189ms total)
TF8B4 10686:142 JLINK_ReadReg(XPSR)  returns 0x01000000 (0000ms, 23189ms total)
TF8B4 10686:142 JLINK_Halt()  returns 0x00 (0000ms, 23189ms total)
TF8B4 10686:142 JLINK_ReadMemU32(0xE000EDF0, 0x0001 Items, ...) -- CPU_ReadMem(4 bytes @ 0xE000EDF0) - Data: 03 00 03 00  returns 0x01 (0001ms, 23190ms total)
TF8B4 10686:143 JLINK_WriteU32(0xE000EDF0, 0xA05F0003) -- CPU_WriteMem(4 bytes @ 0xE000EDF0)  returns 0x00 (0001ms, 23191ms total)
TF8B4 10686:144 JLINK_WriteU32(0xE000EDFC, 0x01000000) -- CPU_WriteMem(4 bytes @ 0xE000EDFC)  returns 0x00 (0001ms, 23192ms total)
TF8B4 10686:145 JLINK_GetHWStatus(...)  returns 0x00 (0001ms, 23193ms total)
TF8B4 10686:146 JLINK_GetNumBPUnits(Type = 0xFFFFFF00)  returns 0x06 (0000ms, 23193ms total)
TF8B4 10686:146 JLINK_GetNumBPUnits(Type = 0xF0)  returns 0x2000 (0000ms, 23193ms total)
TF8B4 10686:147 JLINK_GetNumWPUnits()  returns 0x04 (0000ms, 23193ms total)
TF8B4 10686:147 JLINK_GetSpeed()  returns 0x3E8 (0000ms, 23193ms total)
TF8B4 10686:147 JLINK_ReadMemU32(0xE000E004, 0x0001 Items, ...) -- CPU_ReadMem(4 bytes @ 0xE000E004) - Data: 02 00 00 00  returns 0x01 (0001ms, 23194ms total)
TF8B4 10686:148 JLINK_ReadMemU32(0xE000E004, 0x0001 Items, ...) -- CPU_ReadMem(4 bytes @ 0xE000E004) - Data: 02 00 00 00  returns 0x01 (0001ms, 23195ms total)
TF8B4 10686:149 JLINK_WriteMemEx(0xE0001000, 0x001C Bytes, ..., Flags = 0x02000004) - Data: 01 00 00 00 00 00 00 00 00 00 00 00 00 00 00 00 ... -- CPU_WriteMem(28 bytes @ 0xE0001000)  returns 0x1C (0003ms, 23198ms total)
TF8B4 10686:152 JLINK_ReadReg(R15 (PC))  returns 0x08000240 (0000ms, 23198ms total)
TF8B4 10686:152 JLINK_ReadReg(XPSR)  returns 0x01000000 (0000ms, 23198ms total)
TF8B4 10686:280 JLINK_SetResetType(JLINKARM_CM3_RESET_TYPE_NORMAL)  returns JLINKARM_CM3_RESET_TYPE_NORMAL (0000ms, 23198ms total)
TF8B4 10686:280 JLINK_Reset() -- CPU_WriteMem(4 bytes @ 0xE000EDF0) -- CPU_WriteMem(4 bytes @ 0xE000EDFC)Reset: Halt core after reset via DEMCR.VC_CORERESET.Reset: Reset device via AIRCR.SYSRESETREQ. -- CPU_WriteMem(4 bytes @ 0xE000ED0C) -- CPU_ReadMem(4 bytes @ 0xE000EDF0) -- CPU_ReadMem(4 bytes @ 0xE000EDF0) -- CPU_WriteMem(4 bytes @ 0xE000EDF0) -- CPU_WriteMem(4 bytes @ 0xE000EDFC) -- CPU_ReadMem(4 bytes @ 0xE000EDF0) -- CPU_WriteMem(4 bytes @ 0xE000EDFC) -- CPU_WriteMem(4 bytes @ 0xE0001028)
 -- CPU_WriteMem(4 bytes @ 0xE0001038) -- CPU_WriteMem(4 bytes @ 0xE0001048) -- CPU_WriteMem(4 bytes @ 0xE0001058) -- CPU_WriteMem(4 bytes @ 0xE0002000) -- CPU_ReadMem(4 bytes @ 0xE000EDFC) -- CPU_ReadMem(4 bytes @ 0xE0001000) (0079ms, 23277ms total)
TF8B4 10686:359 JLINK_ReadReg(R15 (PC))  returns 0x08000240 (0000ms, 23277ms total)
TF8B4 10686:359 JLINK_ReadReg(XPSR)  returns 0x01000000 (0000ms, 23277ms total)
TF8B4 10686:360 JLINK_ReadMemEx(0x08000240, 0x003C Bytes, ..., Flags = 0x02000000) -- CPU_ReadMem(64 bytes @ 0x08000240) -- Updating C cache (64 bytes @ 0x08000240) -- Read from C cache (60 bytes @ 0x08000240) - Data: 09 48 80 47 09 48 00 47 FE E7 FE E7 FE E7 FE E7 ...  returns 0x3C (0002ms, 23279ms total)
TF8B4 10687:515 JLINK_ReadReg(R0)  returns 0x00000000 (0002ms, 23281ms total)
TF8B4 10687:517 JLINK_ReadReg(R1)  returns 0x00000000 (0000ms, 23281ms total)
TF8B4 10687:517 JLINK_ReadReg(R2)  returns 0x00000000 (0000ms, 23281ms total)
TF8B4 10687:517 JLINK_ReadReg(R3)  returns 0x00000000 (0000ms, 23281ms total)
TF8B4 10687:517 JLINK_ReadReg(R4)  returns 0x00000000 (0000ms, 23281ms total)
TF8B4 10687:517 JLINK_ReadReg(R5)  returns 0x00000000 (0000ms, 23281ms total)
TF8B4 10687:517 JLINK_ReadReg(R6)  returns 0x00000000 (0000ms, 23281ms total)
TF8B4 10687:517 JLINK_ReadReg(R7)  returns 0x00000000 (0000ms, 23281ms total)
TF8B4 10687:517 JLINK_ReadReg(R8)  returns 0x00000000 (0000ms, 23281ms total)
TF8B4 10687:517 JLINK_ReadReg(R9)  returns 0x00000000 (0000ms, 23281ms total)
TF8B4 10687:517 JLINK_ReadReg(R10)  returns 0x00000000 (0000ms, 23281ms total)
TF8B4 10687:517 JLINK_ReadReg(R11)  returns 0x00000000 (0000ms, 23281ms total)
TF8B4 10687:517 JLINK_ReadReg(R12)  returns 0x00000000 (0000ms, 23281ms total)
TF8B4 10687:517 JLINK_ReadReg(R13 (SP))  returns 0x20002F60 (0000ms, 23281ms total)
TF8B4 10687:517 JLINK_ReadReg(R14)  returns 0xFFFFFFFF (0000ms, 23281ms total)
TF8B4 10687:517 JLINK_ReadReg(R15 (PC))  returns 0x08000240 (0000ms, 23281ms total)
TF8B4 10687:517 JLINK_ReadReg(XPSR)  returns 0x01000000 (0000ms, 23281ms total)
TF8B4 10687:517 JLINK_ReadReg(MSP)  returns 0x20002F60 (0000ms, 23281ms total)
TF8B4 10687:517 JLINK_ReadReg(PSP)  returns 0x00000000 (0000ms, 23281ms total)
TF8B4 10687:517 JLINK_ReadReg(CFBP)  returns 0x00000000 (0000ms, 23281ms total)
TF8B4 10687:517 JLINK_ReadReg(FPSCR)  returns 0x00000000 (0009ms, 23290ms total)
TF8B4 10687:526 JLINK_ReadReg(FPS0)  returns 0x00000000 (0000ms, 23290ms total)
TF8B4 10687:526 JLINK_ReadReg(FPS1)  returns 0x00000000 (0001ms, 23291ms total)
TF8B4 10687:527 JLINK_ReadReg(FPS2)  returns 0x00000000 (0000ms, 23291ms total)
TF8B4 10687:527 JLINK_ReadReg(FPS3)  returns 0x00000000 (0000ms, 23291ms total)
TF8B4 10687:527 JLINK_ReadReg(FPS4)  returns 0x00000000 (0000ms, 23291ms total)
TF8B4 10687:527 JLINK_ReadReg(FPS5)  returns 0x00000000 (0000ms, 23291ms total)
TF8B4 10687:527 JLINK_ReadReg(FPS6)  returns 0x00000000 (0000ms, 23291ms total)
TF8B4 10687:527 JLINK_ReadReg(FPS7)  returns 0x00000000 (0000ms, 23291ms total)
TF8B4 10687:527 JLINK_ReadReg(FPS8)  returns 0x00000000 (0000ms, 23291ms total)
TF8B4 10687:527 JLINK_ReadReg(FPS9)  returns 0x00000000 (0000ms, 23291ms total)
TF8B4 10687:527 JLINK_ReadReg(FPS10)  returns 0x00000000 (0000ms, 23291ms total)
TF8B4 10687:527 JLINK_ReadReg(FPS11)  returns 0x00000000 (0000ms, 23291ms total)
TF8B4 10687:527 JLINK_ReadReg(FPS12)  returns 0x00000000 (0000ms, 23291ms total)
TF8B4 10687:527 JLINK_ReadReg(FPS13)  returns 0x00000000 (0000ms, 23291ms total)
TF8B4 10687:527 JLINK_ReadReg(FPS14)  returns 0x00000000 (0000ms, 23291ms total)
TF8B4 10687:527 JLINK_ReadReg(FPS15)  returns 0x00000000 (0000ms, 23291ms total)
TF8B4 10687:527 JLINK_ReadReg(FPS16)  returns 0x00000000 (0000ms, 23291ms total)
TF8B4 10687:527 JLINK_ReadReg(FPS17)  returns 0x00000000 (0000ms, 23291ms total)
TF8B4 10687:527 JLINK_ReadReg(FPS18)  returns 0x00000000 (0000ms, 23291ms total)
TF8B4 10687:527 JLINK_ReadReg(FPS19)  returns 0x00000000 (0000ms, 23291ms total)
TF8B4 10687:527 JLINK_ReadReg(FPS20)  returns 0x00000000 (0000ms, 23291ms total)
TF8B4 10687:527 JLINK_ReadReg(FPS21)  returns 0x00000000 (0000ms, 23291ms total)
TF8B4 10687:527 JLINK_ReadReg(FPS22)  returns 0x00000000 (0000ms, 23291ms total)
TF8B4 10687:527 JLINK_ReadReg(FPS23)  returns 0x00000000 (0000ms, 23291ms total)
TF8B4 10687:527 JLINK_ReadReg(FPS24)  returns 0x00000000 (0000ms, 23291ms total)
TF8B4 10687:527 JLINK_ReadReg(FPS25)  returns 0x00000000 (0000ms, 23291ms total)
TF8B4 10687:527 JLINK_ReadReg(FPS26)  returns 0x00000000 (0000ms, 23291ms total)
TF8B4 10687:527 JLINK_ReadReg(FPS27)  returns 0x00000000 (0000ms, 23291ms total)
TF8B4 10687:527 JLINK_ReadReg(FPS28)  returns 0x00000000 (0000ms, 23291ms total)
TF8B4 10687:527 JLINK_ReadReg(FPS29)  returns 0x00000000 (0000ms, 23291ms total)
TF8B4 10687:527 JLINK_ReadReg(FPS30)  returns 0x00000000 (0000ms, 23291ms total)
TF8B4 10687:527 JLINK_ReadReg(FPS31)  returns 0x00000000 (0000ms, 23291ms total)
T1082C 10687:602 JLINK_ReadMemEx(0x08000240, 0x0002 Bytes, ..., Flags = 0x02000000) -- Read from C cache (2 bytes @ 0x08000240) - Data: 09 48  returns 0x02 (0000ms, 23291ms total)
T1082C 10687:602 JLINK_SetBPEx(Addr = 0x08004140, Type = 0xFFFFFFF2)  returns 0x00000001 (0000ms, 23291ms total)
T1082C 10687:602 JLINK_SetBPEx(Addr = 0x080041BE, Type = 0xFFFFFFF2)  returns 0x00000002 (0000ms, 23291ms total)
T1082C 10687:602 JLINK_SetBPEx(Addr = 0x080040E6, Type = 0xFFFFFFF2)  returns 0x00000003 (0000ms, 23291ms total)
T1082C 10687:602 JLINK_SetBPEx(Addr = 0x0800419C, Type = 0xFFFFFFF2)  returns 0x00000004 (0000ms, 23291ms total)
T1082C 10687:602 JLINK_Go() -- CPU_ReadMem(4 bytes @ 0xE0001000) -- CPU_WriteMem(4 bytes @ 0xE0002008) -- CPU_WriteMem(4 bytes @ 0xE000200C) -- CPU_WriteMem(4 bytes @ 0xE0002010) -- CPU_WriteMem(4 bytes @ 0xE0002014) -- CPU_WriteMem(4 bytes @ 0xE0002018) -- CPU_WriteMem(4 bytes @ 0xE000201C) -- CPU_WriteMem(4 bytes @ 0xE0001004) (0007ms, 23298ms total)
T1082C 10687:709 JLINK_IsHalted()  returns TRUE (0006ms, 23304ms total)
T1082C 10687:716 JLINK_Halt()  returns 0x00 (0000ms, 23298ms total)
T1082C 10687:716 JLINK_IsHalted()  returns TRUE (0000ms, 23298ms total)
T1082C 10687:716 JLINK_IsHalted()  returns TRUE (0000ms, 23298ms total)
T1082C 10687:716 JLINK_IsHalted()  returns TRUE (0000ms, 23298ms total)
T1082C 10687:716 JLINK_ReadReg(R15 (PC))  returns 0x08004140 (0000ms, 23298ms total)
T1082C 10687:716 JLINK_ReadReg(XPSR)  returns 0x61000000 (0000ms, 23298ms total)
T1082C 10687:716 JLINK_ClrBPEx(BPHandle = 0x00000001)  returns 0x00 (0000ms, 23298ms total)
T1082C 10687:716 JLINK_ClrBPEx(BPHandle = 0x00000002)  returns 0x00 (0000ms, 23298ms total)
T1082C 10687:716 JLINK_ClrBPEx(BPHandle = 0x00000003)  returns 0x00 (0000ms, 23298ms total)
T1082C 10687:716 JLINK_ClrBPEx(BPHandle = 0x00000004)  returns 0x00 (0000ms, 23298ms total)
T1082C 10687:716 JLINK_ReadMemU32(0xE000ED30, 0x0001 Items, ...) -- CPU_ReadMem(4 bytes @ 0xE000ED30) - Data: 02 00 00 00  returns 0x01 (0001ms, 23299ms total)
T1082C 10687:717 JLINK_ReadMemU32(0xE0001028, 0x0001 Items, ...) -- CPU_ReadMem(4 bytes @ 0xE0001028) - Data: 00 00 00 00  returns 0x01 (0001ms, 23300ms total)
T1082C 10687:718 JLINK_ReadMemU32(0xE0001038, 0x0001 Items, ...) -- CPU_ReadMem(4 bytes @ 0xE0001038) - Data: 00 02 00 00  returns 0x01 (0001ms, 23301ms total)
T1082C 10687:719 JLINK_ReadMemU32(0xE0001048, 0x0001 Items, ...) -- CPU_ReadMem(4 bytes @ 0xE0001048) - Data: 00 00 00 00  returns 0x01 (0001ms, 23302ms total)
T1082C 10687:720 JLINK_ReadMemU32(0xE0001058, 0x0001 Items, ...) -- CPU_ReadMem(4 bytes @ 0xE0001058) - Data: 00 00 00 00  returns 0x01 (0001ms, 23303ms total)
T1082C 10687:721 JLINK_ReadReg(R0)  returns 0x20002960 (0000ms, 23303ms total)
T1082C 10687:721 JLINK_ReadReg(R1)  returns 0x20002B60 (0000ms, 23303ms total)
T1082C 10687:721 JLINK_ReadReg(R2)  returns 0x20002B60 (0001ms, 23304ms total)
T1082C 10687:722 JLINK_ReadReg(R3)  returns 0x20002B60 (0000ms, 23304ms total)
T1082C 10687:722 JLINK_ReadReg(R4)  returns 0x00000000 (0000ms, 23304ms total)
T1082C 10687:722 JLINK_ReadReg(R5)  returns 0x20002900 (0000ms, 23304ms total)
T1082C 10687:722 JLINK_ReadReg(R6)  returns 0x00000000 (0000ms, 23304ms total)
T1082C 10687:722 JLINK_ReadReg(R7)  returns 0x00000000 (0000ms, 23304ms total)
T1082C 10687:722 JLINK_ReadReg(R8)  returns 0x00000000 (0000ms, 23304ms total)
T1082C 10687:722 JLINK_ReadReg(R9)  returns 0x00000000 (0000ms, 23304ms total)
T1082C 10687:722 JLINK_ReadReg(R10)  returns 0x0800458C (0000ms, 23304ms total)
T1082C 10687:722 JLINK_ReadReg(R11)  returns 0x00000000 (0000ms, 23304ms total)
T1082C 10687:722 JLINK_ReadReg(R12)  returns 0x20002940 (0000ms, 23304ms total)
T1082C 10687:722 JLINK_ReadReg(R13 (SP))  returns 0x20002F60 (0000ms, 23304ms total)
T1082C 10687:722 JLINK_ReadReg(R14)  returns 0x08000231 (0000ms, 23304ms total)
T1082C 10687:722 JLINK_ReadReg(R15 (PC))  returns 0x08004140 (0000ms, 23304ms total)
T1082C 10687:722 JLINK_ReadReg(XPSR)  returns 0x61000000 (0000ms, 23304ms total)
T1082C 10687:722 JLINK_ReadReg(MSP)  returns 0x20002F60 (0000ms, 23304ms total)
T1082C 10687:722 JLINK_ReadReg(PSP)  returns 0x00000000 (0000ms, 23304ms total)
T1082C 10687:722 JLINK_ReadReg(CFBP)  returns 0x04000000 (0000ms, 23304ms total)
T1082C 10687:722 JLINK_ReadReg(FPSCR)  returns 0x03000000 (0010ms, 23314ms total)
T1082C 10687:732 JLINK_ReadReg(FPS0)  returns 0x00000000 (0000ms, 23314ms total)
T1082C 10687:732 JLINK_ReadReg(FPS1)  returns 0x00000000 (0000ms, 23314ms total)
T1082C 10687:732 JLINK_ReadReg(FPS2)  returns 0x00000000 (0000ms, 23314ms total)
T1082C 10687:732 JLINK_ReadReg(FPS3)  returns 0x00000000 (0000ms, 23314ms total)
T1082C 10687:732 JLINK_ReadReg(FPS4)  returns 0x00000000 (0000ms, 23314ms total)
T1082C 10687:732 JLINK_ReadReg(FPS5)  returns 0x00000000 (0000ms, 23314ms total)
T1082C 10687:732 JLINK_ReadReg(FPS6)  returns 0x00000000 (0000ms, 23314ms total)
T1082C 10687:732 JLINK_ReadReg(FPS7)  returns 0x00000000 (0000ms, 23314ms total)
T1082C 10687:732 JLINK_ReadReg(FPS8)  returns 0x00000000 (0000ms, 23314ms total)
T1082C 10687:732 JLINK_ReadReg(FPS9)  returns 0x00000000 (0000ms, 23314ms total)
T1082C 10687:732 JLINK_ReadReg(FPS10)  returns 0x00000000 (0000ms, 23314ms total)
T1082C 10687:732 JLINK_ReadReg(FPS11)  returns 0x00000000 (0000ms, 23314ms total)
T1082C 10687:732 JLINK_ReadReg(FPS12)  returns 0x00000000 (0000ms, 23314ms total)
T1082C 10687:732 JLINK_ReadReg(FPS13)  returns 0x00000000 (0000ms, 23314ms total)
T1082C 10687:732 JLINK_ReadReg(FPS14)  returns 0x00000000 (0000ms, 23314ms total)
T1082C 10687:732 JLINK_ReadReg(FPS15)  returns 0x00000000 (0000ms, 23314ms total)
T1082C 10687:732 JLINK_ReadReg(FPS16)  returns 0x00000000 (0000ms, 23314ms total)
T1082C 10687:732 JLINK_ReadReg(FPS17)  returns 0x00000000 (0000ms, 23314ms total)
T1082C 10687:732 JLINK_ReadReg(FPS18)  returns 0x00000000 (0000ms, 23314ms total)
T1082C 10687:732 JLINK_ReadReg(FPS19)  returns 0x00000000 (0000ms, 23314ms total)
T1082C 10687:732 JLINK_ReadReg(FPS20)  returns 0x00000000 (0000ms, 23314ms total)
T1082C 10687:732 JLINK_ReadReg(FPS21)  returns 0x00000000 (0000ms, 23314ms total)
T1082C 10687:732 JLINK_ReadReg(FPS22)  returns 0x00000000 (0000ms, 23314ms total)
T1082C 10687:732 JLINK_ReadReg(FPS23)  returns 0x00000000 (0000ms, 23314ms total)
T1082C 10687:732 JLINK_ReadReg(FPS24)  returns 0x00000000 (0000ms, 23314ms total)
T1082C 10687:732 JLINK_ReadReg(FPS25)  returns 0x00000000 (0000ms, 23314ms total)
T1082C 10687:732 JLINK_ReadReg(FPS26)  returns 0x00000000 (0000ms, 23314ms total)
T1082C 10687:732 JLINK_ReadReg(FPS27)  returns 0x00000000 (0000ms, 23314ms total)
T1082C 10687:732 JLINK_ReadReg(FPS28)  returns 0x00000000 (0000ms, 23314ms total)
T1082C 10687:732 JLINK_ReadReg(FPS29)  returns 0x00000000 (0000ms, 23314ms total)
T1082C 10687:732 JLINK_ReadReg(FPS30)  returns 0x00000000 (0000ms, 23314ms total)
T1082C 10687:732 JLINK_ReadReg(FPS31)  returns 0x00000000 (0000ms, 23314ms total)
TF8B4 10687:732 JLINK_ReadMemEx(0x20002F5C, 0x0002 Bytes, ..., Flags = 0x02000000) -- CPU_ReadMem(64 bytes @ 0x20002F40) -- Updating C cache (64 bytes @ 0x20002F40) -- Read from C cache (2 bytes @ 0x20002F5C) - Data: 2D 02  returns 0x02 (0002ms, 23316ms total)
TF8B4 10687:734 JLINK_ReadMemEx(0x00000000, 0x0004 Bytes, ..., Flags = 0x02000000) -- CPU_ReadMem(4 bytes @ 0x00000004) -- CPU_ReadMem(64 bytes @ 0x08000000) -- Updating C cache (64 bytes @ 0x08000000) -- Read from C cache (4 bytes @ 0x08000000) - Data: 60 2F 00 20  returns 0x04 (0003ms, 23319ms total)
TF8B4 10687:742 JLINK_ReadMemEx(0x08004140, 0x003C Bytes, ..., Flags = 0x02000000) -- CPU_ReadMem(64 bytes @ 0x08004140) -- Updating C cache (64 bytes @ 0x08004140) -- Read from C cache (60 bytes @ 0x08004140) - Data: 8A B0 A8 20 FF F7 16 FF 4F F4 A0 60 FD F7 0A FB ...  returns 0x3C (0002ms, 23321ms total)
T1082C 10689:707 JLINK_ReadMemEx(0x08004140, 0x0002 Bytes, ..., Flags = 0x02000000) -- Read from C cache (2 bytes @ 0x08004140) - Data: 8A B0  returns 0x02 (0000ms, 23321ms total)
T1082C 10689:707 JLINK_SetBPEx(Addr = 0x080041BE, Type = 0xFFFFFFF2)  returns 0x00000005 (0000ms, 23321ms total)
T1082C 10689:707 JLINK_SetBPEx(Addr = 0x080040E6, Type = 0xFFFFFFF2)  returns 0x00000006 (0000ms, 23321ms total)
T1082C 10689:707 JLINK_SetBPEx(Addr = 0x0800419C, Type = 0xFFFFFFF2)  returns 0x00000007 (0000ms, 23321ms total)
T1082C 10689:707 JLINK_Go() -- CPU_ReadMem(4 bytes @ 0xE0001000) -- CPU_WriteMem(4 bytes @ 0xE0002008) -- CPU_WriteMem(4 bytes @ 0xE000200C) -- CPU_WriteMem(4 bytes @ 0xE0002010) -- CPU_WriteMem(4 bytes @ 0xE0002014) (0006ms, 23327ms total)
T1082C 10689:813 JLINK_IsHalted()  returns TRUE (0006ms, 23333ms total)
T1082C 10689:819 JLINK_Halt()  returns 0x00 (0001ms, 23328ms total)
T1082C 10689:820 JLINK_IsHalted()  returns TRUE (0000ms, 23328ms total)
T1082C 10689:820 JLINK_IsHalted()  returns TRUE (0000ms, 23328ms total)
T1082C 10689:820 JLINK_IsHalted()  returns TRUE (0000ms, 23328ms total)
T1082C 10689:820 JLINK_ReadReg(R15 (PC))  returns 0x0800419C (0000ms, 23328ms total)
T1082C 10689:820 JLINK_ReadReg(XPSR)  returns 0x81000000 (0000ms, 23328ms total)
T1082C 10689:820 JLINK_ClrBPEx(BPHandle = 0x00000005)  returns 0x00 (0000ms, 23328ms total)
T1082C 10689:820 JLINK_ClrBPEx(BPHandle = 0x00000006)  returns 0x00 (0000ms, 23328ms total)
T1082C 10689:820 JLINK_ClrBPEx(BPHandle = 0x00000007)  returns 0x00 (0000ms, 23328ms total)
T1082C 10689:820 JLINK_ReadMemU32(0xE000ED30, 0x0001 Items, ...) -- CPU_ReadMem(4 bytes @ 0xE000ED30) - Data: 02 00 00 00  returns 0x01 (0001ms, 23329ms total)
T1082C 10689:821 JLINK_ReadMemU32(0xE0001028, 0x0001 Items, ...) -- CPU_ReadMem(4 bytes @ 0xE0001028) - Data: 00 00 00 00  returns 0x01 (0001ms, 23330ms total)
T1082C 10689:822 JLINK_ReadMemU32(0xE0001038, 0x0001 Items, ...) -- CPU_ReadMem(4 bytes @ 0xE0001038) - Data: 00 02 00 00  returns 0x01 (0001ms, 23331ms total)
T1082C 10689:823 JLINK_ReadMemU32(0xE0001048, 0x0001 Items, ...) -- CPU_ReadMem(4 bytes @ 0xE0001048) - Data: 00 00 00 00  returns 0x01 (0001ms, 23332ms total)
T1082C 10689:824 JLINK_ReadMemU32(0xE0001058, 0x0001 Items, ...) -- CPU_ReadMem(4 bytes @ 0xE0001058) - Data: 00 00 00 00  returns 0x01 (0001ms, 23333ms total)
T1082C 10689:825 JLINK_ReadReg(R0)  returns 0x00000000 (0000ms, 23333ms total)
T1082C 10689:826 JLINK_ReadReg(R1)  returns 0x200000AC (0000ms, 23334ms total)
T1082C 10689:826 JLINK_ReadReg(R2)  returns 0x200000A8 (0000ms, 23334ms total)
T1082C 10689:826 JLINK_ReadReg(R3)  returns 0x00000000 (0000ms, 23334ms total)
T1082C 10689:826 JLINK_ReadReg(R4)  returns 0x00000000 (0000ms, 23334ms total)
T1082C 10689:826 JLINK_ReadReg(R5)  returns 0x200001A8 (0000ms, 23334ms total)
T1082C 10689:826 JLINK_ReadReg(R6)  returns 0x00000000 (0000ms, 23334ms total)
T1082C 10689:826 JLINK_ReadReg(R7)  returns 0x00000000 (0000ms, 23334ms total)
T1082C 10689:826 JLINK_ReadReg(R8)  returns 0x00000000 (0000ms, 23334ms total)
T1082C 10689:826 JLINK_ReadReg(R9)  returns 0x00000000 (0000ms, 23334ms total)
T1082C 10689:826 JLINK_ReadReg(R10)  returns 0x0800458C (0000ms, 23334ms total)
T1082C 10689:826 JLINK_ReadReg(R11)  returns 0x00000000 (0000ms, 23334ms total)
T1082C 10689:826 JLINK_ReadReg(R12)  returns 0x00000003 (0000ms, 23334ms total)
T1082C 10689:826 JLINK_ReadReg(R13 (SP))  returns 0x20002F38 (0000ms, 23334ms total)
T1082C 10689:826 JLINK_ReadReg(R14)  returns 0x0800419D (0000ms, 23334ms total)
T1082C 10689:826 JLINK_ReadReg(R15 (PC))  returns 0x0800419C (0000ms, 23334ms total)
T1082C 10689:826 JLINK_ReadReg(XPSR)  returns 0x81000000 (0000ms, 23334ms total)
T1082C 10689:826 JLINK_ReadReg(MSP)  returns 0x20002F38 (0000ms, 23334ms total)
T1082C 10689:826 JLINK_ReadReg(PSP)  returns 0x00000000 (0000ms, 23334ms total)
T1082C 10689:826 JLINK_ReadReg(CFBP)  returns 0x04000000 (0000ms, 23334ms total)
T1082C 10689:826 JLINK_ReadReg(FPSCR)  returns 0x03000000 (0010ms, 23344ms total)
T1082C 10689:836 JLINK_ReadReg(FPS0)  returns 0x00000000 (0000ms, 23344ms total)
T1082C 10689:836 JLINK_ReadReg(FPS1)  returns 0x00000000 (0000ms, 23344ms total)
T1082C 10689:836 JLINK_ReadReg(FPS2)  returns 0x00000000 (0000ms, 23344ms total)
T1082C 10689:836 JLINK_ReadReg(FPS3)  returns 0x00000000 (0000ms, 23344ms total)
T1082C 10689:836 JLINK_ReadReg(FPS4)  returns 0x00000000 (0000ms, 23344ms total)
T1082C 10689:836 JLINK_ReadReg(FPS5)  returns 0x00000000 (0000ms, 23344ms total)
T1082C 10689:836 JLINK_ReadReg(FPS6)  returns 0x00000000 (0000ms, 23344ms total)
T1082C 10689:836 JLINK_ReadReg(FPS7)  returns 0x00000000 (0000ms, 23344ms total)
T1082C 10689:836 JLINK_ReadReg(FPS8)  returns 0x00000000 (0000ms, 23344ms total)
T1082C 10689:836 JLINK_ReadReg(FPS9)  returns 0x00000000 (0000ms, 23344ms total)
T1082C 10689:836 JLINK_ReadReg(FPS10)  returns 0x00000000 (0000ms, 23344ms total)
T1082C 10689:836 JLINK_ReadReg(FPS11)  returns 0x00000000 (0000ms, 23344ms total)
T1082C 10689:836 JLINK_ReadReg(FPS12)  returns 0x00000000 (0001ms, 23345ms total)
T1082C 10689:837 JLINK_ReadReg(FPS13)  returns 0x00000000 (0000ms, 23345ms total)
T1082C 10689:837 JLINK_ReadReg(FPS14)  returns 0x00000000 (0000ms, 23345ms total)
T1082C 10689:837 JLINK_ReadReg(FPS15)  returns 0x00000000 (0000ms, 23345ms total)
T1082C 10689:837 JLINK_ReadReg(FPS16)  returns 0x00000000 (0000ms, 23345ms total)
T1082C 10689:837 JLINK_ReadReg(FPS17)  returns 0x00000000 (0000ms, 23345ms total)
T1082C 10689:837 JLINK_ReadReg(FPS18)  returns 0x00000000 (0000ms, 23345ms total)
T1082C 10689:837 JLINK_ReadReg(FPS19)  returns 0x00000000 (0000ms, 23345ms total)
T1082C 10689:837 JLINK_ReadReg(FPS20)  returns 0x00000000 (0000ms, 23345ms total)
T1082C 10689:837 JLINK_ReadReg(FPS21)  returns 0x00000000 (0000ms, 23345ms total)
T1082C 10689:837 JLINK_ReadReg(FPS22)  returns 0x00000000 (0000ms, 23345ms total)
T1082C 10689:837 JLINK_ReadReg(FPS23)  returns 0x00000000 (0000ms, 23345ms total)
T1082C 10689:837 JLINK_ReadReg(FPS24)  returns 0x00000000 (0000ms, 23345ms total)
T1082C 10689:837 JLINK_ReadReg(FPS25)  returns 0x00000000 (0000ms, 23345ms total)
T1082C 10689:837 JLINK_ReadReg(FPS26)  returns 0x00000000 (0000ms, 23345ms total)
T1082C 10689:837 JLINK_ReadReg(FPS27)  returns 0x00000000 (0000ms, 23345ms total)
T1082C 10689:837 JLINK_ReadReg(FPS28)  returns 0x00000000 (0000ms, 23345ms total)
T1082C 10689:837 JLINK_ReadReg(FPS29)  returns 0x00000000 (0000ms, 23345ms total)
T1082C 10689:837 JLINK_ReadReg(FPS30)  returns 0x00000000 (0000ms, 23345ms total)
T1082C 10689:837 JLINK_ReadReg(FPS31)  returns 0x00000000 (0000ms, 23345ms total)
TF8B4 10689:838 JLINK_ReadMemEx(0x20002F5C, 0x0002 Bytes, ..., Flags = 0x02000000) -- CPU_ReadMem(64 bytes @ 0x20002F40) -- Updating C cache (64 bytes @ 0x20002F40) -- Read from C cache (2 bytes @ 0x20002F5C) - Data: 00 00  returns 0x02 (0002ms, 23347ms total)
TF8B4 10689:841 JLINK_ReadMemEx(0x0800419C, 0x003C Bytes, ..., Flags = 0x02000000) -- CPU_ReadMem(128 bytes @ 0x08004180) -- Updating C cache (128 bytes @ 0x08004180) -- Read from C cache (60 bytes @ 0x0800419C) - Data: 09 A8 FD F7 69 FE FE E7 A8 01 00 20 B9 41 00 08 ...  returns 0x3C (0003ms, 23350ms total)
T1082C 10690:644 JLINK_ReadMemEx(0x0800419C, 0x0002 Bytes, ..., Flags = 0x02000000) -- Read from C cache (2 bytes @ 0x0800419C) - Data: 09 A8  returns 0x02 (0000ms, 23350ms total)
T1082C 10690:644 JLINK_Step() -- Read from C cache (2 bytes @ 0x0800419C) -- CPU_ReadMem(4 bytes @ 0xE000ED18) -- CPU_WriteMem(4 bytes @ 0xE000ED18) -- CPU_ReadMem(4 bytes @ 0xE000ED18) -- CPU_WriteMem(4 bytes @ 0xE000ED18) -- CPU_ReadMem(4 bytes @ 0xE0001004) -- Simulated  returns 0x00 (0006ms, 23356ms total)
T1082C 10690:650 JLINK_ReadReg(R15 (PC))  returns 0x0800419E (0000ms, 23356ms total)
T1082C 10690:650 JLINK_ReadReg(XPSR)  returns 0x81000000 (0000ms, 23356ms total)
T1082C 10690:650 JLINK_SetBPEx(Addr = 0x080041BE, Type = 0xFFFFFFF2)  returns 0x00000008 (0000ms, 23356ms total)
T1082C 10690:650 JLINK_SetBPEx(Addr = 0x080040E6, Type = 0xFFFFFFF2)  returns 0x00000009 (0000ms, 23356ms total)
T1082C 10690:650 JLINK_SetBPEx(Addr = 0x0800419C, Type = 0xFFFFFFF2)  returns 0x0000000A (0000ms, 23356ms total)
T1082C 10690:650 JLINK_Go() -- CPU_ReadMem(4 bytes @ 0xE0001000) -- CPU_WriteMem(4 bytes @ 0xE0001004) (0006ms, 23362ms total)
T1082C 10690:756 JLINK_IsHalted()  returns TRUE (0006ms, 23368ms total)
T1082C 10690:762 JLINK_Halt()  returns 0x00 (0000ms, 23362ms total)
T1082C 10690:762 JLINK_IsHalted()  returns TRUE (0000ms, 23362ms total)
T1082C 10690:762 JLINK_IsHalted()  returns TRUE (0000ms, 23362ms total)
T1082C 10690:762 JLINK_IsHalted()  returns TRUE (0000ms, 23362ms total)
T1082C 10690:762 JLINK_ReadReg(R15 (PC))  returns 0x080041BE (0000ms, 23362ms total)
T1082C 10690:762 JLINK_ReadReg(XPSR)  returns 0x01000000 (0000ms, 23362ms total)
T1082C 10690:762 JLINK_ClrBPEx(BPHandle = 0x00000008)  returns 0x00 (0000ms, 23362ms total)
T1082C 10690:762 JLINK_ClrBPEx(BPHandle = 0x00000009)  returns 0x00 (0001ms, 23363ms total)
T1082C 10690:763 JLINK_ClrBPEx(BPHandle = 0x0000000A)  returns 0x00 (0000ms, 23363ms total)
T1082C 10690:763 JLINK_ReadMemU32(0xE000ED30, 0x0001 Items, ...) -- CPU_ReadMem(4 bytes @ 0xE000ED30) - Data: 02 00 00 00  returns 0x01 (0001ms, 23364ms total)
T1082C 10690:764 JLINK_ReadMemU32(0xE0001028, 0x0001 Items, ...) -- CPU_ReadMem(4 bytes @ 0xE0001028) - Data: 00 00 00 00  returns 0x01 (0001ms, 23365ms total)
T1082C 10690:765 JLINK_ReadMemU32(0xE0001038, 0x0001 Items, ...) -- CPU_ReadMem(4 bytes @ 0xE0001038) - Data: 00 02 00 00  returns 0x01 (0001ms, 23366ms total)
T1082C 10690:766 JLINK_ReadMemU32(0xE0001048, 0x0001 Items, ...) -- CPU_ReadMem(4 bytes @ 0xE0001048) - Data: 00 00 00 00  returns 0x01 (0001ms, 23367ms total)
T1082C 10690:767 JLINK_ReadMemU32(0xE0001058, 0x0001 Items, ...) -- CPU_ReadMem(4 bytes @ 0xE0001058) - Data: 00 00 00 00  returns 0x01 (0001ms, 23368ms total)
T1082C 10690:768 JLINK_ReadReg(R0)  returns 0x00000000 (0000ms, 23368ms total)
T1082C 10690:768 JLINK_ReadReg(R1)  returns 0x20000274 (0000ms, 23368ms total)
T1082C 10690:768 JLINK_ReadReg(R2)  returns 0x02020202 (0000ms, 23368ms total)
T1082C 10690:768 JLINK_ReadReg(R3)  returns 0x03030303 (0000ms, 23368ms total)
T1082C 10690:768 JLINK_ReadReg(R4)  returns 0x04040404 (0000ms, 23368ms total)
T1082C 10690:768 JLINK_ReadReg(R5)  returns 0x05050505 (0000ms, 23368ms total)
T1082C 10690:768 JLINK_ReadReg(R6)  returns 0x06060606 (0000ms, 23368ms total)
T1082C 10690:768 JLINK_ReadReg(R7)  returns 0x07070707 (0000ms, 23368ms total)
T1082C 10690:768 JLINK_ReadReg(R8)  returns 0x08080808 (0001ms, 23369ms total)
T1082C 10690:769 JLINK_ReadReg(R9)  returns 0x09090909 (0000ms, 23369ms total)
T1082C 10690:769 JLINK_ReadReg(R10)  returns 0x10101010 (0000ms, 23369ms total)
T1082C 10690:769 JLINK_ReadReg(R11)  returns 0x11111111 (0000ms, 23369ms total)
T1082C 10690:769 JLINK_ReadReg(R12)  returns 0x12121212 (0000ms, 23369ms total)
T1082C 10690:769 JLINK_ReadReg(R13 (SP))  returns 0x20000960 (0000ms, 23369ms total)
T1082C 10690:769 JLINK_ReadReg(R14)  returns 0x08003409 (0000ms, 23369ms total)
T1082C 10690:769 JLINK_ReadReg(R15 (PC))  returns 0x080041BE (0000ms, 23369ms total)
T1082C 10690:769 JLINK_ReadReg(XPSR)  returns 0x01000000 (0000ms, 23369ms total)
T1082C 10690:769 JLINK_ReadReg(MSP)  returns 0x20001640 (0000ms, 23369ms total)
T1082C 10690:769 JLINK_ReadReg(PSP)  returns 0x20000960 (0000ms, 23369ms total)
T1082C 10690:769 JLINK_ReadReg(CFBP)  returns 0x06000000 (0000ms, 23369ms total)
T1082C 10690:769 JLINK_ReadReg(FPSCR)  returns 0x00000000 (0010ms, 23379ms total)
T1082C 10690:779 JLINK_ReadReg(FPS0)  returns 0x00000000 (0000ms, 23379ms total)
T1082C 10690:779 JLINK_ReadReg(FPS1)  returns 0x00000001 (0000ms, 23379ms total)
T1082C 10690:779 JLINK_ReadReg(FPS2)  returns 0x00000002 (0000ms, 23379ms total)
T1082C 10690:779 JLINK_ReadReg(FPS3)  returns 0x00000003 (0000ms, 23379ms total)
T1082C 10690:779 JLINK_ReadReg(FPS4)  returns 0x00000004 (0000ms, 23379ms total)
T1082C 10690:779 JLINK_ReadReg(FPS5)  returns 0x00000005 (0000ms, 23379ms total)
T1082C 10690:779 JLINK_ReadReg(FPS6)  returns 0x00000006 (0000ms, 23379ms total)
T1082C 10690:779 JLINK_ReadReg(FPS7)  returns 0x00000007 (0000ms, 23379ms total)
T1082C 10690:779 JLINK_ReadReg(FPS8)  returns 0x00000008 (0000ms, 23379ms total)
T1082C 10690:779 JLINK_ReadReg(FPS9)  returns 0x00000009 (0000ms, 23379ms total)
T1082C 10690:779 JLINK_ReadReg(FPS10)  returns 0x00000010 (0000ms, 23379ms total)
T1082C 10690:779 JLINK_ReadReg(FPS11)  returns 0x00000011 (0000ms, 23379ms total)
T1082C 10690:779 JLINK_ReadReg(FPS12)  returns 0x00000012 (0000ms, 23379ms total)
T1082C 10690:779 JLINK_ReadReg(FPS13)  returns 0x00000013 (0000ms, 23379ms total)
T1082C 10690:779 JLINK_ReadReg(FPS14)  returns 0x00000014 (0000ms, 23379ms total)
T1082C 10690:779 JLINK_ReadReg(FPS15)  returns 0x00000015 (0000ms, 23379ms total)
T1082C 10690:779 JLINK_ReadReg(FPS16)  returns 0x00000016 (0000ms, 23379ms total)
T1082C 10690:779 JLINK_ReadReg(FPS17)  returns 0x00000017 (0000ms, 23379ms total)
T1082C 10690:779 JLINK_ReadReg(FPS18)  returns 0x00000018 (0000ms, 23379ms total)
T1082C 10690:779 JLINK_ReadReg(FPS19)  returns 0x00000019 (0000ms, 23379ms total)
T1082C 10690:779 JLINK_ReadReg(FPS20)  returns 0x00000020 (0000ms, 23379ms total)
T1082C 10690:779 JLINK_ReadReg(FPS21)  returns 0x00000021 (0000ms, 23379ms total)
T1082C 10690:779 JLINK_ReadReg(FPS22)  returns 0x00000022 (0000ms, 23379ms total)
T1082C 10690:779 JLINK_ReadReg(FPS23)  returns 0x00000023 (0000ms, 23379ms total)
T1082C 10690:779 JLINK_ReadReg(FPS24)  returns 0x00000024 (0000ms, 23379ms total)
T1082C 10690:779 JLINK_ReadReg(FPS25)  returns 0x00000025 (0000ms, 23379ms total)
T1082C 10690:779 JLINK_ReadReg(FPS26)  returns 0x00000026 (0000ms, 23379ms total)
T1082C 10690:779 JLINK_ReadReg(FPS27)  returns 0x00000027 (0000ms, 23379ms total)
T1082C 10690:779 JLINK_ReadReg(FPS28)  returns 0x00000028 (0000ms, 23379ms total)
T1082C 10690:779 JLINK_ReadReg(FPS29)  returns 0x00000029 (0000ms, 23379ms total)
T1082C 10690:779 JLINK_ReadReg(FPS30)  returns 0x00000030 (0000ms, 23379ms total)
T1082C 10690:779 JLINK_ReadReg(FPS31)  returns 0x00000031 (0000ms, 23379ms total)
TF8B4 10690:783 JLINK_ReadMemEx(0x200009A4, 0x0004 Bytes, ..., Flags = 0x02000000) -- CPU_ReadMem(64 bytes @ 0x20000980) -- Updating C cache (64 bytes @ 0x20000980) -- Read from C cache (4 bytes @ 0x200009A4) - Data: 09 34 00 08  returns 0x04 (0001ms, 23380ms total)
TF8B4 10690:785 JLINK_ReadMemEx(0x2000098C, 0x0004 Bytes, ..., Flags = 0x02000000) -- Read from C cache (4 bytes @ 0x2000098C) - Data: 04 04 04 04  returns 0x04 (0000ms, 23380ms total)
TF8B4 10690:785 JLINK_ReadMemEx(0x20000990, 0x0004 Bytes, ..., Flags = 0x02000000) -- Read from C cache (4 bytes @ 0x20000990) - Data: 05 05 05 05  returns 0x04 (0000ms, 23380ms total)
TF8B4 10690:785 JLINK_ReadMemEx(0x20000994, 0x0004 Bytes, ..., Flags = 0x02000000) -- Read from C cache (4 bytes @ 0x20000994) - Data: 06 06 06 06  returns 0x04 (0000ms, 23380ms total)
TF8B4 10690:785 JLINK_ReadMemEx(0x20000998, 0x0004 Bytes, ..., Flags = 0x02000000) -- Read from C cache (4 bytes @ 0x20000998) - Data: 07 07 07 07  returns 0x04 (0000ms, 23380ms total)
TF8B4 10690:785 JLINK_ReadMemEx(0x2000099C, 0x0004 Bytes, ..., Flags = 0x02000000) -- Read from C cache (4 bytes @ 0x2000099C) - Data: 08 08 08 08  returns 0x04 (0001ms, 23381ms total)
TF8B4 10690:786 JLINK_ReadMemEx(0x200009A0, 0x0004 Bytes, ..., Flags = 0x02000000) -- Read from C cache (4 bytes @ 0x200009A0) - Data: 09 09 09 09  returns 0x04 (0000ms, 23381ms total)
TF8B4 10690:790 JLINK_ReadMemEx(0x20000988, 0x0002 Bytes, ..., Flags = 0x02000000) -- Read from C cache (2 bytes @ 0x20000988) - Data: 10 00  returns 0x02 (0000ms, 23381ms total)
TF8B4 10690:797 JLINK_ReadMemEx(0x080041BE, 0x0002 Bytes, ..., Flags = 0x02000000) -- CPU_ReadMem(64 bytes @ 0x08004180) -- Updating C cache (64 bytes @ 0x08004180) -- Read from C cache (2 bytes @ 0x080041BE) - Data: FD F7  returns 0x02 (0002ms, 23383ms total)
TF8B4 10690:799 JLINK_ReadMemEx(0x080041C0, 0x003C Bytes, ..., Flags = 0x02000000) -- CPU_ReadMem(64 bytes @ 0x080041C0) -- Updating C cache (64 bytes @ 0x080041C0) -- Read from C cache (60 bytes @ 0x080041C0) - Data: E3 F8 0A A8 FD F7 E0 FE FC F7 5E F8 81 46 00 24 ...  returns 0x3C (0002ms, 23385ms total)
T1082C 10697:263 JLINK_ReadMemEx(0x080041BE, 0x0002 Bytes, ..., Flags = 0x02000000) -- Read from C cache (2 bytes @ 0x080041BE) - Data: FD F7  returns 0x02 (0000ms, 23385ms total)
T1082C 10697:263 JLINK_Step() -- Read from C cache (2 bytes @ 0x080041BE) -- CPU_ReadMem(4 bytes @ 0xE0001004) -- Read from C cache (2 bytes @ 0x080041C0) -- Simulated  returns 0x00 (0002ms, 23387ms total)
T1082C 10697:265 JLINK_ReadReg(R15 (PC))  returns 0x08001388 (0000ms, 23387ms total)
T1082C 10697:265 JLINK_ReadReg(XPSR)  returns 0x01000000 (0000ms, 23387ms total)
T1082C 10697:265 JLINK_SetBPEx(Addr = 0x080041BE, Type = 0xFFFFFFF2)  returns 0x0000000B (0000ms, 23387ms total)
T1082C 10697:265 JLINK_SetBPEx(Addr = 0x080040E6, Type = 0xFFFFFFF2)  returns 0x0000000C (0000ms, 23387ms total)
T1082C 10697:265 JLINK_SetBPEx(Addr = 0x0800419C, Type = 0xFFFFFFF2)  returns 0x0000000D (0000ms, 23387ms total)
T1082C 10697:265 JLINK_Go() -- CPU_ReadMem(4 bytes @ 0xE0001000) -- CPU_WriteMem(4 bytes @ 0xE0001004) (0006ms, 23393ms total)
T1082C 10697:371 JLINK_IsHalted()  returns FALSE (0001ms, 23394ms total)
T1082C 10697:472 JLINK_IsHalted()  returns TRUE (0006ms, 23399ms total)
T1082C 10697:478 JLINK_Halt()  returns 0x00 (0000ms, 23393ms total)
T1082C 10697:478 JLINK_IsHalted()  returns TRUE (0000ms, 23393ms total)
T1082C 10697:478 JLINK_IsHalted()  returns TRUE (0000ms, 23393ms total)
T1082C 10697:478 JLINK_IsHalted()  returns TRUE (0000ms, 23393ms total)
T1082C 10697:478 JLINK_ReadReg(R15 (PC))  returns 0x080040E6 (0001ms, 23394ms total)
T1082C 10697:479 JLINK_ReadReg(XPSR)  returns 0x01000000 (0000ms, 23394ms total)
T1082C 10697:479 JLINK_ClrBPEx(BPHandle = 0x0000000B)  returns 0x00 (0000ms, 23394ms total)
T1082C 10697:479 JLINK_ClrBPEx(BPHandle = 0x0000000C)  returns 0x00 (0000ms, 23394ms total)
T1082C 10697:479 JLINK_ClrBPEx(BPHandle = 0x0000000D)  returns 0x00 (0000ms, 23394ms total)
T1082C 10697:479 JLINK_ReadMemU32(0xE000ED30, 0x0001 Items, ...) -- CPU_ReadMem(4 bytes @ 0xE000ED30) - Data: 02 00 00 00  returns 0x01 (0000ms, 23394ms total)
T1082C 10697:479 JLINK_ReadMemU32(0xE0001028, 0x0001 Items, ...) -- CPU_ReadMem(4 bytes @ 0xE0001028) - Data: 00 00 00 00  returns 0x01 (0001ms, 23395ms total)
T1082C 10697:480 JLINK_ReadMemU32(0xE0001038, 0x0001 Items, ...) -- CPU_ReadMem(4 bytes @ 0xE0001038) - Data: 00 02 00 00  returns 0x01 (0001ms, 23396ms total)
T1082C 10697:481 JLINK_ReadMemU32(0xE0001048, 0x0001 Items, ...) -- CPU_ReadMem(4 bytes @ 0xE0001048) - Data: 00 00 00 00  returns 0x01 (0001ms, 23397ms total)
T1082C 10697:482 JLINK_ReadMemU32(0xE0001058, 0x0001 Items, ...) -- CPU_ReadMem(4 bytes @ 0xE0001058) - Data: 00 00 00 00  returns 0x01 (0001ms, 23398ms total)
T1082C 10697:483 JLINK_ReadReg(R0)  returns 0x00000000 (0001ms, 23399ms total)
T1082C 10697:484 JLINK_ReadReg(R1)  returns 0x20000A90 (0000ms, 23399ms total)
T1082C 10697:484 JLINK_ReadReg(R2)  returns 0x02020202 (0000ms, 23399ms total)
T1082C 10697:484 JLINK_ReadReg(R3)  returns 0x03030303 (0000ms, 23399ms total)
T1082C 10697:484 JLINK_ReadReg(R4)  returns 0x04040404 (0000ms, 23399ms total)
T1082C 10697:484 JLINK_ReadReg(R5)  returns 0x05050505 (0000ms, 23399ms total)
T1082C 10697:484 JLINK_ReadReg(R6)  returns 0x06060606 (0000ms, 23399ms total)
T1082C 10697:484 JLINK_ReadReg(R7)  returns 0x07070707 (0000ms, 23399ms total)
T1082C 10697:484 JLINK_ReadReg(R8)  returns 0x08080808 (0000ms, 23399ms total)
T1082C 10697:484 JLINK_ReadReg(R9)  returns 0x09090909 (0000ms, 23399ms total)
T1082C 10697:484 JLINK_ReadReg(R10)  returns 0x10101010 (0000ms, 23399ms total)
T1082C 10697:484 JLINK_ReadReg(R11)  returns 0x11111111 (0000ms, 23399ms total)
T1082C 10697:484 JLINK_ReadReg(R12)  returns 0x12121212 (0000ms, 23399ms total)
T1082C 10697:484 JLINK_ReadReg(R13 (SP))  returns 0x20000C50 (0000ms, 23399ms total)
T1082C 10697:484 JLINK_ReadReg(R14)  returns 0x08003409 (0000ms, 23399ms total)
T1082C 10697:484 JLINK_ReadReg(R15 (PC))  returns 0x080040E6 (0000ms, 23399ms total)
T1082C 10697:484 JLINK_ReadReg(XPSR)  returns 0x01000000 (0000ms, 23399ms total)
T1082C 10697:484 JLINK_ReadReg(MSP)  returns 0x20001640 (0000ms, 23399ms total)
T1082C 10697:484 JLINK_ReadReg(PSP)  returns 0x20000C50 (0000ms, 23399ms total)
T1082C 10697:484 JLINK_ReadReg(CFBP)  returns 0x06000000 (0000ms, 23399ms total)
T1082C 10697:484 JLINK_ReadReg(FPSCR)  returns 0x00000000 (0010ms, 23409ms total)
T1082C 10697:494 JLINK_ReadReg(FPS0)  returns 0x00000000 (0000ms, 23409ms total)
T1082C 10697:494 JLINK_ReadReg(FPS1)  returns 0x00000001 (0000ms, 23409ms total)
T1082C 10697:494 JLINK_ReadReg(FPS2)  returns 0x00000002 (0000ms, 23409ms total)
T1082C 10697:494 JLINK_ReadReg(FPS3)  returns 0x00000003 (0000ms, 23409ms total)
T1082C 10697:494 JLINK_ReadReg(FPS4)  returns 0x00000004 (0000ms, 23409ms total)
T1082C 10697:494 JLINK_ReadReg(FPS5)  returns 0x00000005 (0000ms, 23409ms total)
T1082C 10697:494 JLINK_ReadReg(FPS6)  returns 0x00000006 (0000ms, 23409ms total)
T1082C 10697:494 JLINK_ReadReg(FPS7)  returns 0x00000007 (0000ms, 23409ms total)
T1082C 10697:494 JLINK_ReadReg(FPS8)  returns 0x00000008 (0000ms, 23409ms total)
T1082C 10697:494 JLINK_ReadReg(FPS9)  returns 0x00000009 (0000ms, 23409ms total)
T1082C 10697:494 JLINK_ReadReg(FPS10)  returns 0x00000010 (0000ms, 23409ms total)
T1082C 10697:494 JLINK_ReadReg(FPS11)  returns 0x00000011 (0000ms, 23409ms total)
T1082C 10697:494 JLINK_ReadReg(FPS12)  returns 0x00000012 (0000ms, 23409ms total)
T1082C 10697:494 JLINK_ReadReg(FPS13)  returns 0x00000013 (0000ms, 23409ms total)
T1082C 10697:494 JLINK_ReadReg(FPS14)  returns 0x00000014 (0000ms, 23409ms total)
T1082C 10697:494 JLINK_ReadReg(FPS15)  returns 0x00000015 (0000ms, 23409ms total)
T1082C 10697:494 JLINK_ReadReg(FPS16)  returns 0x00000016 (0000ms, 23409ms total)
T1082C 10697:494 JLINK_ReadReg(FPS17)  returns 0x00000017 (0000ms, 23409ms total)
T1082C 10697:494 JLINK_ReadReg(FPS18)  returns 0x00000018 (0000ms, 23409ms total)
T1082C 10697:494 JLINK_ReadReg(FPS19)  returns 0x00000019 (0000ms, 23409ms total)
T1082C 10697:494 JLINK_ReadReg(FPS20)  returns 0x00000020 (0000ms, 23409ms total)
T1082C 10697:494 JLINK_ReadReg(FPS21)  returns 0x00000021 (0000ms, 23409ms total)
T1082C 10697:494 JLINK_ReadReg(FPS22)  returns 0x00000022 (0000ms, 23409ms total)
T1082C 10697:494 JLINK_ReadReg(FPS23)  returns 0x00000023 (0000ms, 23409ms total)
T1082C 10697:494 JLINK_ReadReg(FPS24)  returns 0x00000024 (0000ms, 23409ms total)
T1082C 10697:494 JLINK_ReadReg(FPS25)  returns 0x00000025 (0000ms, 23409ms total)
T1082C 10697:494 JLINK_ReadReg(FPS26)  returns 0x00000026 (0000ms, 23409ms total)
T1082C 10697:494 JLINK_ReadReg(FPS27)  returns 0x00000027 (0000ms, 23409ms total)
T1082C 10697:494 JLINK_ReadReg(FPS28)  returns 0x00000028 (0000ms, 23409ms total)
T1082C 10697:494 JLINK_ReadReg(FPS29)  returns 0x00000029 (0000ms, 23409ms total)
T1082C 10697:494 JLINK_ReadReg(FPS30)  returns 0x00000030 (0000ms, 23409ms total)
T1082C 10697:494 JLINK_ReadReg(FPS31)  returns 0x00000031 (0000ms, 23409ms total)
TF8B4 10697:494 JLINK_ReadMemEx(0x20000C5C, 0x0004 Bytes, ..., Flags = 0x02000000) -- CPU_ReadMem(64 bytes @ 0x20000C40) -- Updating C cache (64 bytes @ 0x20000C40) -- Read from C cache (4 bytes @ 0x20000C5C) - Data: 09 34 00 08  returns 0x04 (0002ms, 23411ms total)
TF8B4 10697:499 JLINK_ReadMemEx(0x20000C58, 0x0002 Bytes, ..., Flags = 0x02000000) -- Read from C cache (2 bytes @ 0x20000C58) - Data: 03 03  returns 0x02 (0000ms, 23411ms total)
TF8B4 10697:503 JLINK_ReadMemEx(0x080040E6, 0x0002 Bytes, ..., Flags = 0x02000000) -- CPU_ReadMem(64 bytes @ 0x080040C0) -- Updating C cache (64 bytes @ 0x080040C0) -- Read from C cache (2 bytes @ 0x080040E6) - Data: 00 25  returns 0x02 (0002ms, 23413ms total)
TF8B4 10697:505 JLINK_ReadMemEx(0x080040E8, 0x003C Bytes, ..., Flags = 0x02000000) -- CPU_ReadMem(64 bytes @ 0x08004100) -- Updating C cache (64 bytes @ 0x08004100) -- Read from C cache (60 bytes @ 0x080040E8) - Data: 02 AC 4F F4 FA 76 01 20 FD F7 38 FA 00 22 CD E9 ...  returns 0x3C (0002ms, 23415ms total)
T1082C 10700:327 JLINK_ReadMemEx(0x080040E6, 0x0002 Bytes, ..., Flags = 0x02000000) -- Read from C cache (2 bytes @ 0x080040E6) - Data: 00 25  returns 0x02 (0000ms, 23415ms total)
T1082C 10700:327 JLINK_Step() -- Read from C cache (2 bytes @ 0x080040E6) -- CPU_ReadMem(4 bytes @ 0xE0001004) -- Simulated  returns 0x00 (0002ms, 23417ms total)
T1082C 10700:329 JLINK_ReadReg(R15 (PC))  returns 0x080040E8 (0000ms, 23417ms total)
T1082C 10700:329 JLINK_ReadReg(XPSR)  returns 0x41000000 (0000ms, 23417ms total)
T1082C 10700:329 JLINK_SetBPEx(Addr = 0x080041BE, Type = 0xFFFFFFF2)  returns 0x0000000E (0000ms, 23417ms total)
T1082C 10700:329 JLINK_SetBPEx(Addr = 0x080040E6, Type = 0xFFFFFFF2)  returns 0x0000000F (0000ms, 23417ms total)
T1082C 10700:329 JLINK_SetBPEx(Addr = 0x0800419C, Type = 0xFFFFFFF2)  returns 0x00000010 (0000ms, 23417ms total)
T1082C 10700:329 JLINK_Go() -- CPU_ReadMem(4 bytes @ 0xE0001000) -- CPU_WriteMem(4 bytes @ 0xE0001004) (0007ms, 23424ms total)
T1082C 10700:436 JLINK_IsHalted()  returns FALSE (0001ms, 23425ms total)
T1082C 10700:537 JLINK_IsHalted()  returns FALSE (0001ms, 23425ms total)
T1082C 10700:638 JLINK_IsHalted()  returns FALSE (0001ms, 23425ms total)
T1082C 10700:739 JLINK_IsHalted()  returns FALSE (0001ms, 23425ms total)
T1082C 10700:840 JLINK_ReadMemU32(0xE0001004, 0x0001 Items, ...) -- CPU_ReadMem(4 bytes @ 0xE0001004) - Data: 65 18 29 06  returns 0x01 (0001ms, 23425ms total)
T1082C 10700:841 JLINK_IsHalted()  returns FALSE (0002ms, 23427ms total)
T1082C 10700:943 JLINK_IsHalted()  returns FALSE (0001ms, 23426ms total)
T1082C 10701:044 JLINK_IsHalted()  returns FALSE (0001ms, 23426ms total)
T1082C 10701:145 JLINK_IsHalted()  returns FALSE (0001ms, 23426ms total)
T1082C 10701:246 JLINK_IsHalted()  returns FALSE (0001ms, 23426ms total)
T1082C 10701:347 JLINK_IsHalted()  returns FALSE (0001ms, 23426ms total)
T1082C 10701:448 JLINK_ReadMemU32(0xE0001004, 0x0001 Items, ...) - Data: 65 18 29 06  returns 0x01 (0000ms, 23425ms total)
T1082C 10701:451 JLINK_IsHalted()  returns FALSE (0001ms, 23426ms total)
T1082C 10701:552 JLINK_IsHalted()  returns FALSE (0001ms, 23426ms total)
